T3E30 000:005.889   SEGGER J-Link V6.72c Log File
T3E30 000:006.047   DLL Compiled: May  8 2020 17:21:59
T3E30 000:006.070   Logging started @ 2020-05-28 01:59
T3E30 000:006.081 JLINK_SetWarnOutHandler(...)
T3E30 000:006.092 - 0.014ms
T3E30 000:006.107 JLINK_OpenEx(...)
T3E30 000:008.130   Firmware: J-Link V9 compiled Jun  2 2222 22:22:22
T3E30 000:008.440   Decompressing FW timestamp took 166 us
T3E30 000:017.170   Hardware: V9.40
T3E30 000:017.195   S/N: 59401308
T3E30 000:017.208   OEM: SEGGER
T3E30 000:017.221   Feature(s): GDB, RDI, FlashBP, FlashDL, JFlash, RDDI
T3E30 000:019.143   TELNET listener socket opened on port 19021
T3E30 000:019.257   WEBSRV Starting webserver
T3E30 000:019.449   WEBSRV Webserver running on local port 19080
T3E30 000:019.475 - 13.387ms returns "O.K."
T3E30 000:019.533 JLINK_GetEmuCaps()
T3E30 000:019.545 - 0.030ms returns 0xB9FF7BBF
T3E30 000:019.563 JLINK_TIF_GetAvailable(...)
T3E30 000:019.952 - 0.398ms
T3E30 000:019.986 JLINK_SetErrorOutHandler(...)
T3E30 000:019.995 - 0.027ms
T3E30 000:020.031 JLINK_ExecCommand("ProjectFile = "H:\Workspace\NXP\MIMX\MIMXRT1060\1064\SDK\SDK_2.6.1_MIMXRT1064xxxxA\boards\EasyaRM-RT1064 Alpha\driver_examples\elcdif\rgb\mdk\JLinkSettings.ini"", ...). 
T3E30 000:029.553   Ref file found at: d:\Keil_v5\ARM\Segger\JLinkDevices.ref
T3E30 000:029.758   XML referenced by ref file: e:\Program Files (x86)\SEGGER\JLink\JLinkDevices.xml
T3E30 000:030.676   e:\Program Files (x86)\SEGGER\JLink\JLinkDevices.xml evaluated successfully.
T3E30 000:044.236 - 24.223ms returns 0x00
T3E30 000:045.684 JLINK_ExecCommand("Device = MIMXRT1064DVL6A", ...). 
T3E30 000:049.788   Device "MIMXRT1064XXX6A" selected.
T3E30 000:050.207 - 4.515ms returns 0x00
T3E30 000:050.226 JLINK_ExecCommand("DisableConnectionTimeout", ...). 
T3E30 000:050.241 - 0.007ms returns 0x01
T3E30 000:050.252 JLINK_GetHardwareVersion()
T3E30 000:050.261 - 0.013ms returns 0x16F30
T3E30 000:050.274 JLINK_GetDLLVersion()  returns 67203
T3E30 000:050.289 JLINK_GetFirmwareString(...)
T3E30 000:050.297 - 0.013ms
T3E30 000:053.800 JLINK_GetDLLVersion()  returns 67203
T3E30 000:053.815 JLINK_GetCompileDateTime()
T3E30 000:053.824 - 0.012ms
T3E30 000:056.992 JLINK_GetFirmwareString(...)
T3E30 000:057.006 - 0.019ms
T3E30 000:059.714 JLINK_GetHardwareVersion()
T3E30 000:059.731 - 0.021ms returns 0x16F30
T3E30 000:071.593 JLINK_TIF_Select(JLINKARM_TIF_SWD)
T3E30 000:073.090 - 1.507ms returns 0x00
T3E30 000:073.157 JLINK_SetSpeed(20000)
T3E30 000:073.448 - 0.300ms
T3E30 000:073.466 JLINK_GetId()
T3E30 000:076.606   InitTarget() start
T3E30 000:076.626    J-Link Script File: Executing InitTarget()
T3E30 000:079.514   InitTarget()
T3E30 000:086.525   _TargetHalt: CPU halted
T3E30 000:089.222   InitTarget() end
T3E30 000:093.236   Found SW-DP with ID 0x0BD11477
T3E30 000:095.584   Old FW that does not support reading DPIDR via DAP jobs
T3E30 000:099.669   Unknown DP version. Assuming DPv0
T3E30 000:102.667   Scanning AP map to find all available APs
T3E30 000:106.428   AP[1]: Stopped AP scan as end of AP map has been reached
T3E30 000:109.573   AP[0]: AHB-AP (IDR: 0x04770041)
T3E30 000:112.342   Iterating through AP map to find AHB-AP to use
T3E30 000:116.725   AP[0]: Core found
T3E30 000:119.605   AP[0]: AHB-AP ROM base: 0xE00FD000
T3E30 000:123.301   CPUID register: 0x411FC271. Implementer code: 0x41 (ARM)
T3E30 000:126.226   Found Cortex-M7 r1p1, Little endian.
T3E30 000:227.859   -- Max. mem block: 0x00010C48
T3E30 000:228.988   CPU_ReadMem(4 bytes @ 0xE000EDF0)
T3E30 000:229.433   CPU_ReadMem(4 bytes @ 0xE0002000)
T3E30 000:233.386   FPUnit: 8 code (BP) slots and 0 literal slots
T3E30 000:233.426   CPU_ReadMem(4 bytes @ 0xE000EDFC)
T3E30 000:233.966   CPU_WriteMem(4 bytes @ 0xE000EDFC)
T3E30 000:234.440   CPU_ReadMem(4 bytes @ 0xE0001000)
T3E30 000:234.956   CPU_WriteMem(4 bytes @ 0xE0001000)
T3E30 000:235.407   CPU_ReadMem(4 bytes @ 0xE000ED88)
T3E30 000:235.855   CPU_WriteMem(4 bytes @ 0xE000ED88)
T3E30 000:236.239   CPU_ReadMem(4 bytes @ 0xE000ED88)
T3E30 000:236.603   CPU_WriteMem(4 bytes @ 0xE000ED88)
T3E30 000:240.203   CoreSight components:
T3E30 000:243.225   ROMTbl[0] @ E00FD000
T3E30 000:243.255   CPU_ReadMem(64 bytes @ 0xE00FD000)
T3E30 000:244.106   CPU_ReadMem(32 bytes @ 0xE00FEFE0)
T3E30 000:249.127   ROMTbl[0][0]: E00FE000, CID: B105100D, PID: 000BB4C8 ROM Table
T3E30 000:252.514   ROMTbl[1] @ E00FE000
T3E30 000:252.557   CPU_ReadMem(64 bytes @ 0xE00FE000)
T3E30 000:253.346   CPU_ReadMem(32 bytes @ 0xE00FFFE0)
T3E30 000:257.360   ROMTbl[1][0]: E00FF000, CID: B105100D, PID: 000BB4C7 ROM Table
T3E30 000:260.533   ROMTbl[2] @ E00FF000
T3E30 000:260.564   CPU_ReadMem(64 bytes @ 0xE00FF000)
T3E30 000:261.426   CPU_ReadMem(32 bytes @ 0xE000EFE0)
T3E30 000:266.068   ROMTbl[2][0]: E000E000, CID: B105E00D, PID: 000BB00C SCS-M7
T3E30 000:266.128   CPU_ReadMem(32 bytes @ 0xE0001FE0)
T3E30 000:270.229   ROMTbl[2][1]: E0001000, CID: B105E00D, PID: 000BB002 DWT
T3E30 000:270.264   CPU_ReadMem(32 bytes @ 0xE0002FE0)
T3E30 000:274.130   ROMTbl[2][2]: E0002000, CID: B105E00D, PID: 000BB00E FPB-M7
T3E30 000:274.165   CPU_ReadMem(32 bytes @ 0xE0000FE0)
T3E30 000:278.167   ROMTbl[2][3]: E0000000, CID: B105E00D, PID: 000BB001 ITM
T3E30 000:278.200   CPU_ReadMem(32 bytes @ 0xE0041FE0)
T3E30 000:282.634   ROMTbl[1][1]: E0041000, CID: B105900D, PID: 001BB975 ETM-M7
T3E30 000:282.674   CPU_ReadMem(32 bytes @ 0xE0042FE0)
T3E30 000:286.784   ROMTbl[1][2]: E0042000, CID: B105900D, PID: 004BB906 CTI
T3E30 000:286.864   CPU_ReadMem(32 bytes @ 0xE0040FE0)
T3E30 000:290.785   ROMTbl[0][1]: E0040000, CID: B105900D, PID: 000BB9A9 TPIU-M7
T3E30 000:290.833   CPU_ReadMem(32 bytes @ 0xE0043FE0)
T3E30 000:294.650   ROMTbl[0][2]: E0043000, CID: B105F00D, PID: 001BB101 TSG
T3E30 000:294.682   CPU_ReadMem(4 bytes @ 0xE000ED78)
T3E30 000:300.166   Cache: Separate I- and D-cache.
T3E30 000:300.199   CPU_WriteMem(4 bytes @ 0xE000ED84)
T3E30 000:300.683   CPU_ReadMem(4 bytes @ 0xE000ED80)
T3E30 000:304.484   I-Cache L1: 32 KB, 512 Sets, 32 Bytes/Line, 2-Way
T3E30 000:304.509   CPU_WriteMem(4 bytes @ 0xE000ED84)
T3E30 000:305.024   CPU_ReadMem(4 bytes @ 0xE000ED80)
T3E30 000:308.861   D-Cache L1: 32 KB, 256 Sets, 32 Bytes/Line, 4-Way
T3E30 000:309.306 - 235.849ms   returns 0x0BD11477
T3E30 000:309.330 JLINK_GetDLLVersion()  returns 67203
T3E30 000:309.341 JLINK_CORE_GetFound()
T3E30 000:309.350 - 0.013ms returns 0xE0100FF
T3E30 000:309.365 JLINK_GetDebugInfo(0x100 = JLINKARM_ROM_TABLE_ADDR_INDEX)
T3E30 000:309.375   Value=0xE00FD000
T3E30 000:309.401 - 0.040ms returns 0x00
T3E30 000:312.634 JLINK_GetDebugInfo(0x100 = JLINKARM_ROM_TABLE_ADDR_INDEX)
T3E30 000:312.655   Value=0xE00FD000
T3E30 000:312.667 - 0.037ms returns 0x00
T3E30 000:312.679 JLINK_GetDebugInfo(0x101 = JLINKARM_DEBUG_INFO_ETM_ADDR_INDEX)
T3E30 000:312.687   Value=0xE0041000
T3E30 000:312.700 - 0.025ms returns 0x00
T3E30 000:312.718   JLINK_ReadMemEx(0xE0041FD0, 0x0020 Bytes, ..., Flags = 0x02000004)
T3E30 000:312.751   CPU_ReadMem(32 bytes @ 0xE0041FD0)
T3E30 000:313.321   Data:  04 00 00 00 00 00 00 00 00 00 00 00 00 00 00 00 ...
T3E30 000:313.355 - 0.644ms returns 0x20
T3E30 000:313.368 JLINK_GetDebugInfo(0x102 = JLINKARM_DEBUG_INFO_MTB_ADDR_INDEX)
T3E30 000:313.378   Value=0x00000000
T3E30 000:313.390 - 0.026ms returns 0x00
T3E30 000:313.400 JLINK_GetDebugInfo(0x103 = JLINKARM_DEBUG_INFO_TPIU_ADDR_INDEX)
T3E30 000:313.409   Value=0xE0040000
T3E30 000:313.422 - 0.025ms returns 0x00
T3E30 000:313.432 JLINK_GetDebugInfo(0x104 = JLINKARM_DEBUG_INFO_ITM_ADDR_INDEX)
T3E30 000:313.441   Value=0xE0000000
T3E30 000:313.453 - 0.025ms returns 0x00
T3E30 000:313.463 JLINK_GetDebugInfo(0x105 = JLINKARM_DEBUG_INFO_DWT_ADDR_INDEX)
T3E30 000:313.472   Value=0xE0001000
T3E30 000:313.484 - 0.025ms returns 0x00
T3E30 000:313.494 JLINK_GetDebugInfo(0x106 = JLINKARM_DEBUG_INFO_FPB_ADDR_INDEX)
T3E30 000:313.503   Value=0xE0002000
T3E30 000:313.516 - 0.026ms returns 0x00
T3E30 000:313.528 JLINK_GetDebugInfo(0x107 = JLINKARM_DEBUG_INFO_NVIC_ADDR_INDEX)
T3E30 000:313.538   Value=0xE000E000
T3E30 000:313.569 - 0.074ms returns 0x00
T3E30 000:313.610 JLINK_GetDebugInfo(0x10C = JLINKARM_DEBUG_INFO_DBG_ADDR_INDEX)
T3E30 000:313.621   Value=0xE000EDF0
T3E30 000:313.638 - 0.032ms returns 0x00
T3E30 000:313.650 JLINK_GetDebugInfo(0x01 = Unknown)
T3E30 000:313.691   Value=0x00000001
T3E30 000:313.711 - 0.066ms returns 0x00
T3E30 000:313.725 JLINK_ReadMemU32(0xE000ED00, 0x0001 Items, ...)
T3E30 000:313.777   CPU_ReadMem(4 bytes @ 0xE000ED00)
T3E30 000:314.364   Data:  71 C2 1F 41
T3E30 000:314.384   Debug reg: CPUID
T3E30 000:314.397 - 0.676ms returns 1
T3E30 000:314.412 JLINK_GetDebugInfo(0x10F = JLINKARM_DEBUG_INFO_HAS_CORTEX_M_SECURITY_EXT_INDEX)
T3E30 000:314.422   Value=0x00000000
T3E30 000:314.434 - 0.026ms returns 0x00
T3E30 000:314.448 JLINK_SetResetType(JLINKARM_CM3_RESET_TYPE_CORE)
T3E30 000:314.457 - 0.013ms returns JLINKARM_CM3_RESET_TYPE_NORMAL
T3E30 000:314.468 JLINK_Reset()
T3E30 000:314.496   CPU is running
T3E30 000:314.511   CPU_WriteMem(4 bytes @ 0xE000EDF0)
T3E30 000:315.046   CPU is running
T3E30 000:315.064   CPU_WriteMem(4 bytes @ 0xE000EDFC)
T3E30 000:319.916   Reset: Halt core after reset via DEMCR.VC_CORERESET.
T3E30 000:323.767   Reset: Reset device via AIRCR.VECTRESET.
T3E30 000:323.798   CPU is running
T3E30 000:323.815   CPU_WriteMem(4 bytes @ 0xE000ED0C)
T3E30 000:324.268   CPU_ReadMem(4 bytes @ 0xE000EDF0)
T3E30 000:324.792   CPU_ReadMem(4 bytes @ 0xE000EDF0)
T3E30 000:325.257   CPU is running
T3E30 000:325.275   CPU_WriteMem(4 bytes @ 0xE000EDF0)
T3E30 000:325.757   CPU is running
T3E30 000:325.775   CPU_WriteMem(4 bytes @ 0xE000EDFC)
T3E30 000:331.451   CPU_ReadMem(4 bytes @ 0xE000EDF0)
T3E30 000:333.704   CPU_WriteMem(4 bytes @ 0xE0002000)
T3E30 000:334.176   CPU_ReadMem(4 bytes @ 0xE000EDFC)
T3E30 000:334.631   CPU_ReadMem(4 bytes @ 0xE0001000)
T3E30 000:335.031 - 20.571ms
T3E30 000:335.054 JLINK_Halt()
T3E30 000:335.064 - 0.013ms returns 0x00
T3E30 000:335.077 JLINK_ReadMemU32(0xE000EDF0, 0x0001 Items, ...)
T3E30 000:335.097   CPU_ReadMem(4 bytes @ 0xE000EDF0)
T3E30 000:335.561   Data:  03 00 03 00
T3E30 000:335.594   Debug reg: DHCSR
T3E30 000:335.608 - 0.535ms returns 1
T3E30 000:335.623 JLINK_WriteU32(0xE000EDF0, 0xA05F0003)
T3E30 000:335.633   Debug reg: DHCSR
T3E30 000:335.682   CPU_WriteMem(4 bytes @ 0xE000EDF0)
T3E30 000:336.073 - 0.458ms returns 0
T3E30 000:336.093 JLINK_WriteU32(0xE000EDFC, 0x01000000)
T3E30 000:336.104   Debug reg: DEMCR
T3E30 000:336.129   CPU_WriteMem(4 bytes @ 0xE000EDFC)
T3E30 000:336.466 - 0.382ms returns 0
T3E30 000:349.705 JLINK_GetHWStatus(...)
T3E30 000:350.201 - 0.533ms returns 0x00
T3E30 000:361.688 JLINK_GetNumBPUnits(Type = 0xFFFFFF00)
T3E30 000:361.713 - 0.030ms returns 0x08
T3E30 000:361.725 JLINK_GetNumBPUnits(Type = 0xF0)
T3E30 000:361.734 - 0.013ms returns 0x2000
T3E30 000:361.745 JLINK_GetNumWPUnits()
T3E30 000:361.753 - 0.012ms returns 0x04
T3E30 000:371.800 JLINK_GetSpeed()
T3E30 000:371.825 - 0.029ms returns 0x2EE0
T3E30 000:377.679 JLINK_ReadMemU32(0xE000E004, 0x0001 Items, ...)
T3E30 000:377.719   CPU_ReadMem(4 bytes @ 0xE000E004)
T3E30 000:378.296   Data:  04 00 00 00
T3E30 000:378.316 - 0.641ms returns 1
T3E30 000:378.330 JLINK_ReadMemU32(0xE000E004, 0x0001 Items, ...)
T3E30 000:378.351   CPU_ReadMem(4 bytes @ 0xE000E004)
T3E30 000:378.845   Data:  04 00 00 00
T3E30 000:378.867 - 0.542ms returns 1
T3E30 000:378.883 JLINK_WriteMemEx(0xE0001000, 0x001C Bytes, ..., Flags = 0x02000004)
T3E30 000:378.893   Data:  01 00 00 00 00 00 00 00 00 00 00 00 00 00 00 00 ...
T3E30 000:379.546   CPU_WriteMem(28 bytes @ 0xE0001000)
T3E30 000:380.229 - 1.355ms returns 0x1C
T3E30 000:380.252 JLINK_Halt()
T3E30 000:380.262 - 0.014ms returns 0x00
T3E30 000:380.273 JLINK_IsHalted()
T3E30 000:380.288 - 0.019ms returns TRUE
T3E30 000:384.324 JLINK_WriteMem(0x20000000, 0x099C Bytes, ...)
T3E30 000:384.342   Data:  00 BE 0A E0 0D 78 2D 06 68 40 08 24 40 00 00 D3 ...
T3E30 000:384.838   CPU_WriteMem(2460 bytes @ 0x20000000)
T3E30 000:391.006 - 6.710ms returns 0x99C
T3E30 000:391.203 JLINK_WriteReg(R0, 0x70000000)
T3E30 000:391.232 - 0.035ms returns 0x00
T3E30 000:391.244 JLINK_WriteReg(R1, 0x00B71B00)
T3E30 000:391.259 - 0.019ms returns 0x00
T3E30 000:391.270 JLINK_WriteReg(R2, 0x00000001)
T3E30 000:391.284 - 0.018ms returns 0x00
T3E30 000:391.295 JLINK_WriteReg(R3, 0x00000000)
T3E30 000:391.309 - 0.018ms returns 0x00
T3E30 000:391.319 JLINK_WriteReg(R4, 0x00000000)
T3E30 000:391.334 - 0.019ms returns 0x00
T3E30 000:391.344 JLINK_WriteReg(R5, 0x00000000)
T3E30 000:391.446 - 0.106ms returns 0x00
T3E30 000:391.457 JLINK_WriteReg(R6, 0x00000000)
T3E30 000:391.471 - 0.018ms returns 0x00
T3E30 000:391.482 JLINK_WriteReg(R7, 0x00000000)
T3E30 000:391.496 - 0.019ms returns 0x00
T3E30 000:391.507 JLINK_WriteReg(R8, 0x00000000)
T3E30 000:391.521 - 0.018ms returns 0x00
T3E30 000:391.531 JLINK_WriteReg(R9, 0x20000990)
T3E30 000:391.545 - 0.018ms returns 0x00
T3E30 000:391.556 JLINK_WriteReg(R10, 0x00000000)
T3E30 000:391.570 - 0.018ms returns 0x00
T3E30 000:391.580 JLINK_WriteReg(R11, 0x00000000)
T3E30 000:391.594 - 0.018ms returns 0x00
T3E30 000:391.605 JLINK_WriteReg(R12, 0x00000000)
T3E30 000:391.619 - 0.018ms returns 0x00
T3E30 000:391.629 JLINK_WriteReg(R13 (SP), 0x20008000)
T3E30 000:391.644 - 0.019ms returns 0x00
T3E30 000:391.655 JLINK_WriteReg(R14, 0x20000001)
T3E30 000:391.669 - 0.018ms returns 0x00
T3E30 000:391.679 JLINK_WriteReg(R15 (PC), 0x20000050)
T3E30 000:391.694 - 0.018ms returns 0x00
T3E30 000:391.704 JLINK_WriteReg(XPSR, 0x01000000)
T3E30 000:391.719 - 0.019ms returns 0x00
T3E30 000:391.730 JLINK_WriteReg(MSP, 0x20008000)
T3E30 000:391.744 - 0.020ms returns 0x00
T3E30 000:391.756 JLINK_WriteReg(PSP, 0x20008000)
T3E30 000:391.789 - 0.050ms returns 0x00
T3E30 000:391.813 JLINK_WriteReg(CFBP, 0x00000000)
T3E30 000:391.828 - 0.019ms returns 0x00
T3E30 000:391.841   JLINK_SetBPEx(Addr = 0x20000000, Type = 0xFFFFFFF2)
T3E30 000:391.873 - 0.038ms returns 0x00000001
T3E30 000:391.885 JLINK_Go()
T3E30 000:391.913   CPU_WriteMem(4 bytes @ 0xE0002000)
T3E30 000:392.454   CPU_ReadMem(4 bytes @ 0xE0001000)
T3E30 000:392.906   CPU_WriteMem(4 bytes @ 0xE0002008)
T3E30 000:392.925   CPU_WriteMem(4 bytes @ 0xE000200C)
T3E30 000:392.938   CPU_WriteMem(4 bytes @ 0xE0002010)
T3E30 000:392.951   CPU_WriteMem(4 bytes @ 0xE0002014)
T3E30 000:392.964   CPU_WriteMem(4 bytes @ 0xE0002018)
T3E30 000:392.977   CPU_WriteMem(4 bytes @ 0xE000201C)
T3E30 000:392.990   CPU_WriteMem(4 bytes @ 0xE0002020)
T3E30 000:393.002   CPU_WriteMem(4 bytes @ 0xE0002024)
T3E30 000:394.451   CPU_WriteMem(4 bytes @ 0xE0001004)
T3E30 000:396.968 - 5.131ms
T3E30 000:397.044 JLINK_IsHalted()
T3E30 000:399.014 - 1.996ms returns TRUE
T3E30 000:399.053 JLINK_ReadReg(R15 (PC))
T3E30 000:399.069 - 0.020ms returns 0x20000000
T3E30 000:399.080 JLINK_ClrBPEx(BPHandle = 0x00000001)
T3E30 000:399.095 - 0.018ms returns 0x00
T3E30 000:399.106 JLINK_ReadReg(R0)
T3E30 000:399.120 - 0.019ms returns 0x00000000
T3E30 000:399.511 JLINK_WriteReg(R0, 0x70000000)
T3E30 000:399.530 - 0.023ms returns 0x00
T3E30 000:399.541 JLINK_WriteReg(R1, 0x00010000)
T3E30 000:399.555 - 0.018ms returns 0x00
T3E30 000:399.566 JLINK_WriteReg(R2, 0x000000FF)
T3E30 000:399.579 - 0.018ms returns 0x00
T3E30 000:399.590 JLINK_WriteReg(R3, 0x00000000)
T3E30 000:399.604 - 0.018ms returns 0x00
T3E30 000:399.614 JLINK_WriteReg(R4, 0x00000000)
T3E30 000:399.628 - 0.018ms returns 0x00
T3E30 000:399.638 JLINK_WriteReg(R5, 0x00000000)
T3E30 000:399.652 - 0.018ms returns 0x00
T3E30 000:399.662 JLINK_WriteReg(R6, 0x00000000)
T3E30 000:399.676 - 0.018ms returns 0x00
T3E30 000:399.686 JLINK_WriteReg(R7, 0x00000000)
T3E30 000:399.700 - 0.018ms returns 0x00
T3E30 000:399.710 JLINK_WriteReg(R8, 0x00000000)
T3E30 000:399.725 - 0.018ms returns 0x00
T3E30 000:399.735 JLINK_WriteReg(R9, 0x20000990)
T3E30 000:399.749 - 0.018ms returns 0x00
T3E30 000:399.759 JLINK_WriteReg(R10, 0x00000000)
T3E30 000:399.773 - 0.018ms returns 0x00
T3E30 000:399.783 JLINK_WriteReg(R11, 0x00000000)
T3E30 000:399.797 - 0.018ms returns 0x00
T3E30 000:399.890 JLINK_WriteReg(R12, 0x00000000)
T3E30 000:399.906 - 0.021ms returns 0x00
T3E30 000:399.917 JLINK_WriteReg(R13 (SP), 0x20008000)
T3E30 000:400.028 - 0.116ms returns 0x00
T3E30 000:400.039 JLINK_WriteReg(R14, 0x20000001)
T3E30 000:400.053 - 0.018ms returns 0x00
T3E30 000:400.063 JLINK_WriteReg(R15 (PC), 0x20000020)
T3E30 000:400.077 - 0.018ms returns 0x00
T3E30 000:400.088 JLINK_WriteReg(XPSR, 0x01000000)
T3E30 000:400.102 - 0.018ms returns 0x00
T3E30 000:400.112 JLINK_WriteReg(MSP, 0x20008000)
T3E30 000:400.127 - 0.019ms returns 0x00
T3E30 000:400.137 JLINK_WriteReg(PSP, 0x20008000)
T3E30 000:400.151 - 0.018ms returns 0x00
T3E30 000:400.161 JLINK_WriteReg(CFBP, 0x00000000)
T3E30 000:400.175 - 0.018ms returns 0x00
T3E30 000:400.186   JLINK_SetBPEx(Addr = 0x20000000, Type = 0xFFFFFFF2)
T3E30 000:400.205 - 0.023ms returns 0x00000002
T3E30 000:400.216 JLINK_Go()
T3E30 000:400.242   CPU_WriteMem(4 bytes @ 0xE0002000)
T3E30 000:400.781   CPU_ReadMem(4 bytes @ 0xE0001000)
T3E30 000:403.341 - 3.133ms
T3E30 000:403.358 JLINK_IsHalted()
T3E30 000:404.996 - 1.646ms returns TRUE
T3E30 000:405.013 JLINK_ReadReg(R15 (PC))
T3E30 000:405.029 - 0.020ms returns 0x20000000
T3E30 000:405.040 JLINK_ClrBPEx(BPHandle = 0x00000002)
T3E30 000:405.054 - 0.018ms returns 0x00
T3E30 000:405.065 JLINK_ReadReg(R0)
T3E30 000:405.079 - 0.018ms returns 0x00000001
T3E30 000:405.092 JLINK_WriteReg(R0, 0x70000000)
T3E30 000:405.154 - 0.067ms returns 0x00
T3E30 000:405.166 JLINK_WriteReg(R1, 0x00010000)
T3E30 000:405.180 - 0.018ms returns 0x00
T3E30 000:405.190 JLINK_WriteReg(R2, 0x000000FF)
T3E30 000:405.205 - 0.019ms returns 0x00
T3E30 000:405.216 JLINK_WriteReg(R3, 0x00000000)
T3E30 000:405.229 - 0.018ms returns 0x00
T3E30 000:405.240 JLINK_WriteReg(R4, 0x00000000)
T3E30 000:405.253 - 0.018ms returns 0x00
T3E30 000:405.264 JLINK_WriteReg(R5, 0x00000000)
T3E30 000:405.366 - 0.106ms returns 0x00
T3E30 000:405.376 JLINK_WriteReg(R6, 0x00000000)
T3E30 000:405.390 - 0.018ms returns 0x00
T3E30 000:405.400 JLINK_WriteReg(R7, 0x00000000)
T3E30 000:405.415 - 0.019ms returns 0x00
T3E30 000:405.426 JLINK_WriteReg(R8, 0x00000000)
T3E30 000:405.440 - 0.018ms returns 0x00
T3E30 000:405.450 JLINK_WriteReg(R9, 0x20000990)
T3E30 000:405.464 - 0.018ms returns 0x00
T3E30 000:405.474 JLINK_WriteReg(R10, 0x00000000)
T3E30 000:405.488 - 0.018ms returns 0x00
T3E30 000:405.498 JLINK_WriteReg(R11, 0x00000000)
T3E30 000:405.512 - 0.018ms returns 0x00
T3E30 000:405.523 JLINK_WriteReg(R12, 0x00000000)
T3E30 000:405.536 - 0.018ms returns 0x00
T3E30 000:405.547 JLINK_WriteReg(R13 (SP), 0x20008000)
T3E30 000:405.561 - 0.018ms returns 0x00
T3E30 000:405.571 JLINK_WriteReg(R14, 0x20000001)
T3E30 000:405.586 - 0.019ms returns 0x00
T3E30 000:405.596 JLINK_WriteReg(R15 (PC), 0x20000128)
T3E30 000:405.610 - 0.018ms returns 0x00
T3E30 000:405.620 JLINK_WriteReg(XPSR, 0x01000000)
T3E30 000:405.634 - 0.018ms returns 0x00
T3E30 000:405.644 JLINK_WriteReg(MSP, 0x20008000)
T3E30 000:405.658 - 0.018ms returns 0x00
T3E30 000:405.668 JLINK_WriteReg(PSP, 0x20008000)
T3E30 000:405.682 - 0.018ms returns 0x00
T3E30 000:405.692 JLINK_WriteReg(CFBP, 0x00000000)
T3E30 000:405.706 - 0.018ms returns 0x00
T3E30 000:405.717   JLINK_SetBPEx(Addr = 0x20000000, Type = 0xFFFFFFF2)
T3E30 000:405.735 - 0.023ms returns 0x00000003
T3E30 000:405.746 JLINK_Go()
T3E30 000:405.762   CPU_WriteMem(4 bytes @ 0xE0002000)
T3E30 000:406.258   CPU_ReadMem(4 bytes @ 0xE0001000)
T3E30 000:408.541 - 2.804ms
T3E30 000:408.559 JLINK_IsHalted()
T3E30 000:409.011 - 0.460ms returns FALSE
T3E30 000:422.766 JLINK_IsHalted()
T3E30 000:423.265 - 0.510ms returns FALSE
T3E30 000:426.921 JLINK_IsHalted()
T3E30 000:427.440 - 0.533ms returns FALSE
T3E30 000:428.919 JLINK_IsHalted()
T3E30 000:429.447 - 0.553ms returns FALSE
T3E30 000:431.096 JLINK_IsHalted()
T3E30 000:431.819 - 0.735ms returns FALSE
T3E30 000:433.079 JLINK_IsHalted()
T3E30 000:433.649 - 0.581ms returns FALSE
T3E30 000:435.069 JLINK_IsHalted()
T3E30 000:435.686 - 0.637ms returns FALSE
T3E30 000:437.066 JLINK_IsHalted()
T3E30 000:437.622 - 0.571ms returns FALSE
T3E30 000:439.065 JLINK_IsHalted()
T3E30 000:439.786 - 0.749ms returns FALSE
T3E30 000:440.973 JLINK_IsHalted()
T3E30 000:441.540 - 0.586ms returns FALSE
T3E30 000:442.954 JLINK_IsHalted()
T3E30 000:443.574 - 0.635ms returns FALSE
T3E30 000:444.950 JLINK_IsHalted()
T3E30 000:445.504 - 0.564ms returns FALSE
T3E30 000:447.666 JLINK_IsHalted()
T3E30 000:448.434 - 0.777ms returns FALSE
T3E30 000:449.668 JLINK_IsHalted()
T3E30 000:450.276 - 0.619ms returns FALSE
T3E30 000:451.442 JLINK_IsHalted()
T3E30 000:452.029 - 0.607ms returns FALSE
T3E30 000:453.191 JLINK_IsHalted()
T3E30 000:453.732 - 0.550ms returns FALSE
T3E30 000:455.151 JLINK_IsHalted()
T3E30 000:455.720 - 0.579ms returns FALSE
T3E30 000:457.732 JLINK_IsHalted()
T3E30 000:458.279 - 0.558ms returns FALSE
T3E30 000:459.457 JLINK_IsHalted()
T3E30 000:460.018 - 0.571ms returns FALSE
T3E30 000:461.403 JLINK_IsHalted()
T3E30 000:461.823 - 0.428ms returns FALSE
T3E30 000:463.981 JLINK_IsHalted()
T3E30 000:464.511 - 0.551ms returns FALSE
T3E30 000:465.973 JLINK_IsHalted()
T3E30 000:466.537 - 0.572ms returns FALSE
T3E30 000:467.830 JLINK_IsHalted()
T3E30 000:468.463 - 0.642ms returns FALSE
T3E30 000:469.588 JLINK_IsHalted()
T3E30 000:470.112 - 0.532ms returns FALSE
T3E30 000:471.580 JLINK_IsHalted()
T3E30 000:472.135 - 0.563ms returns FALSE
T3E30 000:473.437 JLINK_IsHalted()
T3E30 000:473.923 - 0.495ms returns FALSE
T3E30 000:475.067 JLINK_IsHalted()
T3E30 000:475.548 - 0.489ms returns FALSE
T3E30 000:477.036 JLINK_IsHalted()
T3E30 000:477.509 - 0.483ms returns FALSE
T3E30 000:479.035 JLINK_IsHalted()
T3E30 000:479.569 - 0.543ms returns FALSE
T3E30 000:480.726 JLINK_IsHalted()
T3E30 000:481.209 - 0.492ms returns FALSE
T3E30 000:482.697 JLINK_IsHalted()
T3E30 000:483.176 - 0.493ms returns FALSE
T3E30 000:486.200 JLINK_IsHalted()
T3E30 000:486.787 - 0.595ms returns FALSE
T3E30 000:487.919 JLINK_IsHalted()
T3E30 000:488.352 - 0.440ms returns FALSE
T3E30 000:489.913 JLINK_IsHalted()
T3E30 000:490.395 - 0.489ms returns FALSE
T3E30 000:491.913 JLINK_IsHalted()
T3E30 000:492.403 - 0.497ms returns FALSE
T3E30 000:493.947 JLINK_IsHalted()
T3E30 000:494.454 - 0.514ms returns FALSE
T3E30 000:496.122 JLINK_IsHalted()
T3E30 000:496.641 - 0.526ms returns FALSE
T3E30 000:498.096 JLINK_IsHalted()
T3E30 000:498.554 - 0.466ms returns FALSE
T3E30 000:500.079 JLINK_IsHalted()
T3E30 000:500.517 - 0.446ms returns FALSE
T3E30 000:502.070 JLINK_IsHalted()
T3E30 000:502.559 - 0.496ms returns FALSE
T3E30 000:504.099 JLINK_IsHalted()
T3E30 000:504.601 - 0.509ms returns FALSE
T3E30 000:505.750 JLINK_IsHalted()
T3E30 000:506.229 - 0.486ms returns FALSE
T3E30 000:507.659 JLINK_IsHalted()
T3E30 000:508.204 - 0.552ms returns FALSE
T3E30 000:509.713 JLINK_IsHalted()
T3E30 000:510.191 - 0.485ms returns FALSE
T3E30 000:512.345 JLINK_IsHalted()
T3E30 000:512.821 - 0.484ms returns FALSE
T3E30 000:514.344 JLINK_IsHalted()
T3E30 000:514.814 - 0.477ms returns FALSE
T3E30 000:516.336 JLINK_IsHalted()
T3E30 000:516.803 - 0.475ms returns FALSE
T3E30 000:518.356 JLINK_IsHalted()
T3E30 000:518.802 - 0.454ms returns FALSE
T3E30 000:519.927 JLINK_IsHalted()
T3E30 000:520.419 - 0.500ms returns FALSE
T3E30 000:522.080 JLINK_IsHalted()
T3E30 000:522.703 - 0.631ms returns FALSE
T3E30 000:523.868 JLINK_IsHalted()
T3E30 000:524.387 - 0.526ms returns FALSE
T3E30 000:525.863 JLINK_IsHalted()
T3E30 000:526.319 - 0.462ms returns FALSE
T3E30 000:528.515 JLINK_IsHalted()
T3E30 000:529.045 - 0.538ms returns FALSE
T3E30 000:531.202 JLINK_IsHalted()
T3E30 000:531.745 - 0.551ms returns FALSE
T3E30 000:533.213 JLINK_IsHalted()
T3E30 000:533.714 - 0.509ms returns FALSE
T3E30 000:534.848 JLINK_IsHalted()
T3E30 000:535.333 - 0.493ms returns FALSE
T3E30 000:536.737 JLINK_IsHalted()
T3E30 000:537.202 - 0.473ms returns FALSE
T3E30 000:539.847 JLINK_IsHalted()
T3E30 000:540.392 - 0.553ms returns FALSE
T3E30 000:541.827 JLINK_IsHalted()
T3E30 000:542.339 - 0.522ms returns FALSE
T3E30 000:543.948 JLINK_IsHalted()
T3E30 000:544.553 - 0.618ms returns FALSE
T3E30 000:545.818 JLINK_IsHalted()
T3E30 000:546.355 - 0.547ms returns FALSE
T3E30 000:547.701 JLINK_IsHalted()
T3E30 000:548.177 - 0.488ms returns FALSE
T3E30 000:550.791 JLINK_IsHalted()
T3E30 000:551.311 - 0.527ms returns FALSE
T3E30 000:552.785 JLINK_IsHalted()
T3E30 000:553.272 - 0.494ms returns FALSE
T3E30 000:554.776 JLINK_IsHalted()
T3E30 000:555.270 - 0.501ms returns FALSE
T3E30 000:556.435 JLINK_IsHalted()
T3E30 000:556.879 - 0.452ms returns FALSE
T3E30 000:559.053 JLINK_IsHalted()
T3E30 000:560.915 - 1.870ms returns TRUE
T3E30 000:560.932 JLINK_ReadReg(R15 (PC))
T3E30 000:560.948 - 0.021ms returns 0x20000000
T3E30 000:560.959 JLINK_ClrBPEx(BPHandle = 0x00000003)
T3E30 000:560.974 - 0.019ms returns 0x00
T3E30 000:560.985 JLINK_ReadReg(R0)
T3E30 000:560.999 - 0.018ms returns 0x00000000
T3E30 000:561.652 JLINK_WriteReg(R0, 0x00000001)
T3E30 000:561.685 - 0.038ms returns 0x00
T3E30 000:561.696 JLINK_WriteReg(R1, 0x00010000)
T3E30 000:561.710 - 0.018ms returns 0x00
T3E30 000:561.721 JLINK_WriteReg(R2, 0x000000FF)
T3E30 000:561.734 - 0.018ms returns 0x00
T3E30 000:561.745 JLINK_WriteReg(R3, 0x00000000)
T3E30 000:561.762 - 0.021ms returns 0x00
T3E30 000:561.773 JLINK_WriteReg(R4, 0x00000000)
T3E30 000:561.786 - 0.018ms returns 0x00
T3E30 000:561.797 JLINK_WriteReg(R5, 0x00000000)
T3E30 000:561.857 - 0.065ms returns 0x00
T3E30 000:561.870 JLINK_WriteReg(R6, 0x00000000)
T3E30 000:562.049 - 0.183ms returns 0x00
T3E30 000:562.059 JLINK_WriteReg(R7, 0x00000000)
T3E30 000:562.073 - 0.018ms returns 0x00
T3E30 000:562.084 JLINK_WriteReg(R8, 0x00000000)
T3E30 000:562.097 - 0.018ms returns 0x00
T3E30 000:562.108 JLINK_WriteReg(R9, 0x20000990)
T3E30 000:562.121 - 0.018ms returns 0x00
T3E30 000:562.132 JLINK_WriteReg(R10, 0x00000000)
T3E30 000:562.145 - 0.018ms returns 0x00
T3E30 000:562.156 JLINK_WriteReg(R11, 0x00000000)
T3E30 000:562.173 - 0.021ms returns 0x00
T3E30 000:562.183 JLINK_WriteReg(R12, 0x00000000)
T3E30 000:562.197 - 0.018ms returns 0x00
T3E30 000:562.207 JLINK_WriteReg(R13 (SP), 0x20008000)
T3E30 000:562.221 - 0.018ms returns 0x00
T3E30 000:562.232 JLINK_WriteReg(R14, 0x20000001)
T3E30 000:562.246 - 0.018ms returns 0x00
T3E30 000:562.256 JLINK_WriteReg(R15 (PC), 0x20000110)
T3E30 000:562.270 - 0.018ms returns 0x00
T3E30 000:562.281 JLINK_WriteReg(XPSR, 0x01000000)
T3E30 000:562.294 - 0.018ms returns 0x00
T3E30 000:562.305 JLINK_WriteReg(MSP, 0x20008000)
T3E30 000:562.339 - 0.038ms returns 0x00
T3E30 000:562.350 JLINK_WriteReg(PSP, 0x20008000)
T3E30 000:562.364 - 0.018ms returns 0x00
T3E30 000:562.374 JLINK_WriteReg(CFBP, 0x00000000)
T3E30 000:562.402 - 0.031ms returns 0x00
T3E30 000:562.413   JLINK_SetBPEx(Addr = 0x20000000, Type = 0xFFFFFFF2)
T3E30 000:562.432 - 0.024ms returns 0x00000004
T3E30 000:562.443 JLINK_Go()
T3E30 000:562.461   CPU_WriteMem(4 bytes @ 0xE0002000)
T3E30 000:562.983   CPU_ReadMem(4 bytes @ 0xE0001000)
T3E30 000:565.263 - 2.828ms
T3E30 000:565.279 JLINK_IsHalted()
T3E30 000:566.991 - 1.719ms returns TRUE
T3E30 000:567.006 JLINK_ReadReg(R15 (PC))
T3E30 000:567.023 - 0.020ms returns 0x20000000
T3E30 000:567.034 JLINK_ClrBPEx(BPHandle = 0x00000004)
T3E30 000:567.138 - 0.109ms returns 0x00
T3E30 000:567.151 JLINK_ReadReg(R0)
T3E30 000:567.165 - 0.018ms returns 0x00000000
T3E30 000:624.626 JLINK_WriteMem(0x20000000, 0x099C Bytes, ...)
T3E30 000:624.643   Data:  00 BE 0A E0 0D 78 2D 06 68 40 08 24 40 00 00 D3 ...
T3E30 000:624.680   CPU_WriteMem(2460 bytes @ 0x20000000)
T3E30 000:630.920 - 6.327ms returns 0x99C
T3E30 000:631.010 JLINK_WriteReg(R0, 0x70000000)
T3E30 000:631.027 - 0.022ms returns 0x00
T3E30 000:631.037 JLINK_WriteReg(R1, 0x00B71B00)
T3E30 000:631.051 - 0.017ms returns 0x00
T3E30 000:631.061 JLINK_WriteReg(R2, 0x00000002)
T3E30 000:631.074 - 0.017ms returns 0x00
T3E30 000:631.083 JLINK_WriteReg(R3, 0x00000000)
T3E30 000:631.096 - 0.017ms returns 0x00
T3E30 000:631.106 JLINK_WriteReg(R4, 0x00000000)
T3E30 000:631.122 - 0.022ms returns 0x00
T3E30 000:631.134 JLINK_WriteReg(R5, 0x00000000)
T3E30 000:631.149 - 0.018ms returns 0x00
T3E30 000:631.159 JLINK_WriteReg(R6, 0x00000000)
T3E30 000:631.171 - 0.017ms returns 0x00
T3E30 000:631.181 JLINK_WriteReg(R7, 0x00000000)
T3E30 000:631.194 - 0.017ms returns 0x00
T3E30 000:631.204 JLINK_WriteReg(R8, 0x00000000)
T3E30 000:631.303 - 0.104ms returns 0x00
T3E30 000:631.315 JLINK_WriteReg(R9, 0x20000990)
T3E30 000:631.380 - 0.069ms returns 0x00
T3E30 000:631.390 JLINK_WriteReg(R10, 0x00000000)
T3E30 000:631.403 - 0.017ms returns 0x00
T3E30 000:631.413 JLINK_WriteReg(R11, 0x00000000)
T3E30 000:631.426 - 0.017ms returns 0x00
T3E30 000:631.436 JLINK_WriteReg(R12, 0x00000000)
T3E30 000:631.449 - 0.017ms returns 0x00
T3E30 000:631.458 JLINK_WriteReg(R13 (SP), 0x20008000)
T3E30 000:631.472 - 0.017ms returns 0x00
T3E30 000:631.482 JLINK_WriteReg(R14, 0x20000001)
T3E30 000:631.495 - 0.017ms returns 0x00
T3E30 000:631.505 JLINK_WriteReg(R15 (PC), 0x20000050)
T3E30 000:631.518 - 0.017ms returns 0x00
T3E30 000:631.528 JLINK_WriteReg(XPSR, 0x01000000)
T3E30 000:631.541 - 0.017ms returns 0x00
T3E30 000:631.551 JLINK_WriteReg(MSP, 0x20008000)
T3E30 000:631.564 - 0.017ms returns 0x00
T3E30 000:631.574 JLINK_WriteReg(PSP, 0x20008000)
T3E30 000:631.587 - 0.017ms returns 0x00
T3E30 000:631.597 JLINK_WriteReg(CFBP, 0x00000000)
T3E30 000:631.611 - 0.018ms returns 0x00
T3E30 000:631.621   JLINK_SetBPEx(Addr = 0x20000000, Type = 0xFFFFFFF2)
T3E30 000:631.640 - 0.023ms returns 0x00000005
T3E30 000:631.650 JLINK_Go()
T3E30 000:631.668   CPU_WriteMem(4 bytes @ 0xE0002000)
T3E30 000:632.181   CPU_ReadMem(4 bytes @ 0xE0001000)
T3E30 000:634.917 - 3.286ms
T3E30 000:634.948 JLINK_IsHalted()
T3E30 000:636.982 - 2.060ms returns TRUE
T3E30 000:637.019 JLINK_ReadReg(R15 (PC))
T3E30 000:637.036 - 0.021ms returns 0x20000000
T3E30 000:637.047 JLINK_ClrBPEx(BPHandle = 0x00000005)
T3E30 000:637.061 - 0.019ms returns 0x00
T3E30 000:637.072 JLINK_ReadReg(R0)
T3E30 000:637.086 - 0.018ms returns 0x00000000
T3E30 000:637.469 JLINK_WriteMem(0x20000B9C, 0x0064 Bytes, ...)
T3E30 000:637.493   Data:  46 43 46 42 00 04 01 56 00 00 00 00 01 03 03 00 ...
T3E30 000:637.726   CPU_WriteMem(100 bytes @ 0x20000B9C)
T3E30 000:638.699 - 1.246ms returns 0x64
T3E30 000:638.722 JLINK_WriteMem(0x20000C00, 0x009C Bytes, ...)
T3E30 000:638.732   Data:  00 00 00 00 00 00 00 00 00 00 00 00 00 00 00 00 ...
T3E30 000:638.760   CPU_WriteMem(156 bytes @ 0x20000C00)
T3E30 000:639.820 - 1.107ms returns 0x9C
T3E30 000:639.843 JLINK_WriteReg(R0, 0x70000000)
T3E30 000:639.861 - 0.023ms returns 0x00
T3E30 000:639.872 JLINK_WriteReg(R1, 0x00000100)
T3E30 000:639.886 - 0.018ms returns 0x00
T3E30 000:639.897 JLINK_WriteReg(R2, 0x20000B9C)
T3E30 000:639.912 - 0.019ms returns 0x00
T3E30 000:639.923 JLINK_WriteReg(R3, 0x00000000)
T3E30 000:639.937 - 0.018ms returns 0x00
T3E30 000:639.948 JLINK_WriteReg(R4, 0x00000000)
T3E30 000:639.962 - 0.018ms returns 0x00
T3E30 000:639.972 JLINK_WriteReg(R5, 0x00000000)
T3E30 000:639.986 - 0.018ms returns 0x00
T3E30 000:639.997 JLINK_WriteReg(R6, 0x00000000)
T3E30 000:640.011 - 0.018ms returns 0x00
T3E30 000:640.021 JLINK_WriteReg(R7, 0x00000000)
T3E30 000:640.035 - 0.018ms returns 0x00
T3E30 000:640.046 JLINK_WriteReg(R8, 0x00000000)
T3E30 000:640.060 - 0.018ms returns 0x00
T3E30 000:640.070 JLINK_WriteReg(R9, 0x20000990)
T3E30 000:640.085 - 0.019ms returns 0x00
T3E30 000:640.097 JLINK_WriteReg(R10, 0x00000000)
T3E30 000:640.111 - 0.020ms returns 0x00
T3E30 000:640.123 JLINK_WriteReg(R11, 0x00000000)
T3E30 000:640.141 - 0.022ms returns 0x00
T3E30 000:640.152 JLINK_WriteReg(R12, 0x00000000)
T3E30 000:640.213 - 0.066ms returns 0x00
T3E30 000:640.224 JLINK_WriteReg(R13 (SP), 0x20008000)
T3E30 000:640.239 - 0.019ms returns 0x00
T3E30 000:640.249 JLINK_WriteReg(R14, 0x20000001)
T3E30 000:640.348 - 0.104ms returns 0x00
T3E30 000:640.359 JLINK_WriteReg(R15 (PC), 0x20000146)
T3E30 000:640.374 - 0.018ms returns 0x00
T3E30 000:640.384 JLINK_WriteReg(XPSR, 0x01000000)
T3E30 000:640.445 - 0.068ms returns 0x00
T3E30 000:640.459 JLINK_WriteReg(MSP, 0x20008000)
T3E30 000:640.473 - 0.018ms returns 0x00
T3E30 000:640.483 JLINK_WriteReg(PSP, 0x20008000)
T3E30 000:640.497 - 0.018ms returns 0x00
T3E30 000:640.507 JLINK_WriteReg(CFBP, 0x00000000)
T3E30 000:640.521 - 0.018ms returns 0x00
T3E30 000:640.532   JLINK_SetBPEx(Addr = 0x20000000, Type = 0xFFFFFFF2)
T3E30 000:640.552 - 0.024ms returns 0x00000006
T3E30 000:640.563 JLINK_Go()
T3E30 000:640.582   CPU_WriteMem(4 bytes @ 0xE0002000)
T3E30 000:641.073   CPU_ReadMem(4 bytes @ 0xE0001000)
T3E30 000:643.263 - 2.709ms
T3E30 000:643.282 JLINK_IsHalted()
T3E30 000:643.723 - 0.448ms returns FALSE
T3E30 000:648.030 JLINK_IsHalted()
T3E30 000:649.960 - 1.939ms returns TRUE
T3E30 000:649.979 JLINK_ReadReg(R15 (PC))
T3E30 000:649.995 - 0.020ms returns 0x20000000
T3E30 000:650.006 JLINK_ClrBPEx(BPHandle = 0x00000006)
T3E30 000:650.021 - 0.018ms returns 0x00
T3E30 000:650.032 JLINK_ReadReg(R0)
T3E30 000:650.046 - 0.018ms returns 0x00000000
T3E30 000:650.557 JLINK_WriteMem(0x20000B9C, 0x0064 Bytes, ...)
T3E30 000:650.571   Data:  00 00 00 00 00 00 00 00 00 00 00 00 00 00 00 00 ...
T3E30 000:650.598   CPU_WriteMem(100 bytes @ 0x20000B9C)
T3E30 000:651.490 - 0.941ms returns 0x64
T3E30 000:651.508 JLINK_WriteMem(0x20000C00, 0x009C Bytes, ...)
T3E30 000:651.517   Data:  00 00 00 00 00 00 00 00 00 00 00 00 00 00 00 00 ...
T3E30 000:651.540   CPU_WriteMem(156 bytes @ 0x20000C00)
T3E30 000:652.696 - 1.197ms returns 0x9C
T3E30 000:652.717 JLINK_WriteReg(R0, 0x70000100)
T3E30 000:652.735 - 0.022ms returns 0x00
T3E30 000:652.746 JLINK_WriteReg(R1, 0x00000100)
T3E30 000:652.844 - 0.103ms returns 0x00
T3E30 000:652.856 JLINK_WriteReg(R2, 0x20000B9C)
T3E30 000:652.870 - 0.018ms returns 0x00
T3E30 000:652.880 JLINK_WriteReg(R3, 0x00000000)
T3E30 000:652.894 - 0.018ms returns 0x00
T3E30 000:652.904 JLINK_WriteReg(R4, 0x00000000)
T3E30 000:652.918 - 0.018ms returns 0x00
T3E30 000:652.928 JLINK_WriteReg(R5, 0x00000000)
T3E30 000:652.942 - 0.018ms returns 0x00
T3E30 000:652.953 JLINK_WriteReg(R6, 0x00000000)
T3E30 000:652.966 - 0.018ms returns 0x00
T3E30 000:652.977 JLINK_WriteReg(R7, 0x00000000)
T3E30 000:652.999 - 0.027ms returns 0x00
T3E30 000:653.010 JLINK_WriteReg(R8, 0x00000000)
T3E30 000:653.024 - 0.018ms returns 0x00
T3E30 000:653.034 JLINK_WriteReg(R9, 0x20000990)
T3E30 000:653.048 - 0.018ms returns 0x00
T3E30 000:653.058 JLINK_WriteReg(R10, 0x00000000)
T3E30 000:653.072 - 0.018ms returns 0x00
T3E30 000:653.083 JLINK_WriteReg(R11, 0x00000000)
T3E30 000:653.096 - 0.018ms returns 0x00
T3E30 000:653.107 JLINK_WriteReg(R12, 0x00000000)
T3E30 000:653.120 - 0.018ms returns 0x00
T3E30 000:653.131 JLINK_WriteReg(R13 (SP), 0x20008000)
T3E30 000:653.145 - 0.018ms returns 0x00
T3E30 000:653.156 JLINK_WriteReg(R14, 0x20000001)
T3E30 000:653.171 - 0.019ms returns 0x00
T3E30 000:653.181 JLINK_WriteReg(R15 (PC), 0x20000146)
T3E30 000:653.248 - 0.071ms returns 0x00
T3E30 000:653.259 JLINK_WriteReg(XPSR, 0x01000000)
T3E30 000:653.273 - 0.018ms returns 0x00
T3E30 000:653.283 JLINK_WriteReg(MSP, 0x20008000)
T3E30 000:653.297 - 0.018ms returns 0x00
T3E30 000:653.307 JLINK_WriteReg(PSP, 0x20008000)
T3E30 000:653.408 - 0.105ms returns 0x00
T3E30 000:653.419 JLINK_WriteReg(CFBP, 0x00000000)
T3E30 000:653.433 - 0.018ms returns 0x00
T3E30 000:653.444   JLINK_SetBPEx(Addr = 0x20000000, Type = 0xFFFFFFF2)
T3E30 000:653.463 - 0.023ms returns 0x00000007
T3E30 000:653.473 JLINK_Go()
T3E30 000:653.490   CPU_WriteMem(4 bytes @ 0xE0002000)
T3E30 000:653.951   CPU_ReadMem(4 bytes @ 0xE0001000)
T3E30 000:656.425 - 2.960ms
T3E30 000:656.443 JLINK_IsHalted()
T3E30 000:658.062 - 1.647ms returns TRUE
T3E30 000:658.112 JLINK_ReadReg(R15 (PC))
T3E30 000:658.142 - 0.034ms returns 0x20000000
T3E30 000:658.154 JLINK_ClrBPEx(BPHandle = 0x00000007)
T3E30 000:658.185 - 0.035ms returns 0x00
T3E30 000:658.196 JLINK_ReadReg(R0)
T3E30 000:658.213 - 0.021ms returns 0x00000000
T3E30 000:658.911 JLINK_WriteMem(0x20000B9C, 0x0064 Bytes, ...)
T3E30 000:658.948   Data:  00 00 00 00 00 00 00 00 00 00 00 00 00 00 00 00 ...
T3E30 000:658.972   CPU_WriteMem(100 bytes @ 0x20000B9C)
T3E30 000:659.686 - 0.798ms returns 0x64
T3E30 000:659.719 JLINK_WriteMem(0x20000C00, 0x009C Bytes, ...)
T3E30 000:659.729   Data:  00 00 00 00 00 00 00 00 00 00 00 00 00 00 00 00 ...
T3E30 000:659.753   CPU_WriteMem(156 bytes @ 0x20000C00)
T3E30 000:660.632 - 0.922ms returns 0x9C
T3E30 000:660.654 JLINK_WriteReg(R0, 0x70000200)
T3E30 000:660.674 - 0.025ms returns 0x00
T3E30 000:660.686 JLINK_WriteReg(R1, 0x00000100)
T3E30 000:660.701 - 0.020ms returns 0x00
T3E30 000:660.713 JLINK_WriteReg(R2, 0x20000B9C)
T3E30 000:660.729 - 0.020ms returns 0x00
T3E30 000:660.740 JLINK_WriteReg(R3, 0x00000000)
T3E30 000:660.755 - 0.019ms returns 0x00
T3E30 000:660.766 JLINK_WriteReg(R4, 0x00000000)
T3E30 000:660.781 - 0.019ms returns 0x00
T3E30 000:660.792 JLINK_WriteReg(R5, 0x00000000)
T3E30 000:660.807 - 0.019ms returns 0x00
T3E30 000:660.818 JLINK_WriteReg(R6, 0x00000000)
T3E30 000:660.833 - 0.019ms returns 0x00
T3E30 000:660.844 JLINK_WriteReg(R7, 0x00000000)
T3E30 000:660.859 - 0.019ms returns 0x00
T3E30 000:660.870 JLINK_WriteReg(R8, 0x00000000)
T3E30 000:660.975 - 0.110ms returns 0x00
T3E30 000:660.987 JLINK_WriteReg(R9, 0x20000990)
T3E30 000:661.002 - 0.019ms returns 0x00
T3E30 000:661.013 JLINK_WriteReg(R10, 0x00000000)
T3E30 000:661.028 - 0.019ms returns 0x00
T3E30 000:661.039 JLINK_WriteReg(R11, 0x00000000)
T3E30 000:661.054 - 0.019ms returns 0x00
T3E30 000:661.065 JLINK_WriteReg(R12, 0x00000000)
T3E30 000:661.080 - 0.019ms returns 0x00
T3E30 000:661.091 JLINK_WriteReg(R13 (SP), 0x20008000)
T3E30 000:661.107 - 0.020ms returns 0x00
T3E30 000:661.118 JLINK_WriteReg(R14, 0x20000001)
T3E30 000:661.133 - 0.019ms returns 0x00
T3E30 000:661.144 JLINK_WriteReg(R15 (PC), 0x20000146)
T3E30 000:661.159 - 0.019ms returns 0x00
T3E30 000:661.170 JLINK_WriteReg(XPSR, 0x01000000)
T3E30 000:661.185 - 0.019ms returns 0x00
T3E30 000:661.196 JLINK_WriteReg(MSP, 0x20008000)
T3E30 000:661.214 - 0.022ms returns 0x00
T3E30 000:661.225 JLINK_WriteReg(PSP, 0x20008000)
T3E30 000:661.290 - 0.070ms returns 0x00
T3E30 000:661.302 JLINK_WriteReg(CFBP, 0x00000000)
T3E30 000:661.316 - 0.019ms returns 0x00
T3E30 000:661.328   JLINK_SetBPEx(Addr = 0x20000000, Type = 0xFFFFFFF2)
T3E30 000:661.348 - 0.024ms returns 0x00000008
T3E30 000:661.359 JLINK_Go()
T3E30 000:661.377   CPU_WriteMem(4 bytes @ 0xE0002000)
T3E30 000:661.734   CPU_ReadMem(4 bytes @ 0xE0001000)
T3E30 000:663.773 - 2.423ms
T3E30 000:663.791 JLINK_IsHalted()
T3E30 000:664.123 - 0.340ms returns FALSE
T3E30 000:665.754 JLINK_IsHalted()
T3E30 000:667.352 - 1.613ms returns TRUE
T3E30 000:667.370 JLINK_ReadReg(R15 (PC))
T3E30 000:667.388 - 0.023ms returns 0x20000000
T3E30 000:667.400 JLINK_ClrBPEx(BPHandle = 0x00000008)
T3E30 000:667.415 - 0.019ms returns 0x00
T3E30 000:667.426 JLINK_ReadReg(R0)
T3E30 000:667.527 - 0.105ms returns 0x00000000
T3E30 000:668.015 JLINK_WriteMem(0x20000B9C, 0x0064 Bytes, ...)
T3E30 000:668.028   Data:  00 00 00 00 00 00 00 00 00 00 00 00 00 00 00 00 ...
T3E30 000:668.057   CPU_WriteMem(100 bytes @ 0x20000B9C)
T3E30 000:668.822 - 0.828ms returns 0x64
T3E30 000:668.852 JLINK_WriteMem(0x20000C00, 0x009C Bytes, ...)
T3E30 000:668.862   Data:  00 00 00 00 00 00 00 00 00 00 00 00 00 00 00 00 ...
T3E30 000:668.885   CPU_WriteMem(156 bytes @ 0x20000C00)
T3E30 000:669.871 - 1.027ms returns 0x9C
T3E30 000:669.891 JLINK_WriteReg(R0, 0x70000300)
T3E30 000:669.908 - 0.021ms returns 0x00
T3E30 000:669.919 JLINK_WriteReg(R1, 0x00000100)
T3E30 000:669.936 - 0.021ms returns 0x00
T3E30 000:669.947 JLINK_WriteReg(R2, 0x20000B9C)
T3E30 000:669.961 - 0.018ms returns 0x00
T3E30 000:669.971 JLINK_WriteReg(R3, 0x00000000)
T3E30 000:669.985 - 0.018ms returns 0x00
T3E30 000:669.995 JLINK_WriteReg(R4, 0x00000000)
T3E30 000:670.010 - 0.019ms returns 0x00
T3E30 000:670.020 JLINK_WriteReg(R5, 0x00000000)
T3E30 000:670.034 - 0.018ms returns 0x00
T3E30 000:670.044 JLINK_WriteReg(R6, 0x00000000)
T3E30 000:670.061 - 0.021ms returns 0x00
T3E30 000:670.072 JLINK_WriteReg(R7, 0x00000000)
T3E30 000:670.086 - 0.018ms returns 0x00
T3E30 000:670.096 JLINK_WriteReg(R8, 0x00000000)
T3E30 000:670.110 - 0.018ms returns 0x00
T3E30 000:670.120 JLINK_WriteReg(R9, 0x20000990)
T3E30 000:670.134 - 0.018ms returns 0x00
T3E30 000:670.144 JLINK_WriteReg(R10, 0x00000000)
T3E30 000:670.158 - 0.018ms returns 0x00
T3E30 000:670.168 JLINK_WriteReg(R11, 0x00000000)
T3E30 000:670.182 - 0.018ms returns 0x00
T3E30 000:670.192 JLINK_WriteReg(R12, 0x00000000)
T3E30 000:670.206 - 0.018ms returns 0x00
T3E30 000:670.217 JLINK_WriteReg(R13 (SP), 0x20008000)
T3E30 000:670.328 - 0.116ms returns 0x00
T3E30 000:670.339 JLINK_WriteReg(R14, 0x20000001)
T3E30 000:670.353 - 0.018ms returns 0x00
T3E30 000:670.363 JLINK_WriteReg(R15 (PC), 0x20000146)
T3E30 000:670.377 - 0.018ms returns 0x00
T3E30 000:670.388 JLINK_WriteReg(XPSR, 0x01000000)
T3E30 000:670.401 - 0.018ms returns 0x00
T3E30 000:670.412 JLINK_WriteReg(MSP, 0x20008000)
T3E30 000:670.428 - 0.020ms returns 0x00
T3E30 000:670.438 JLINK_WriteReg(PSP, 0x20008000)
T3E30 000:670.452 - 0.018ms returns 0x00
T3E30 000:670.462 JLINK_WriteReg(CFBP, 0x00000000)
T3E30 000:670.476 - 0.018ms returns 0x00
T3E30 000:670.487   JLINK_SetBPEx(Addr = 0x20000000, Type = 0xFFFFFFF2)
T3E30 000:670.506 - 0.023ms returns 0x00000009
T3E30 000:670.517 JLINK_Go()
T3E30 000:670.578   CPU_WriteMem(4 bytes @ 0xE0002000)
T3E30 000:670.997   CPU_ReadMem(4 bytes @ 0xE0001000)
T3E30 000:673.303 - 2.795ms
T3E30 000:673.323 JLINK_IsHalted()
T3E30 000:673.745 - 0.429ms returns FALSE
T3E30 000:676.812 JLINK_IsHalted()
T3E30 000:678.713 - 1.910ms returns TRUE
T3E30 000:678.751 JLINK_ReadReg(R15 (PC))
T3E30 000:678.780 - 0.033ms returns 0x20000000
T3E30 000:678.791 JLINK_ClrBPEx(BPHandle = 0x00000009)
T3E30 000:678.805 - 0.018ms returns 0x00
T3E30 000:678.816 JLINK_ReadReg(R0)
T3E30 000:678.830 - 0.018ms returns 0x00000000
T3E30 000:679.378 JLINK_WriteMem(0x20000B9C, 0x0064 Bytes, ...)
T3E30 000:679.413   Data:  00 00 00 00 00 00 00 00 00 00 00 00 00 00 00 00 ...
T3E30 000:679.438   CPU_WriteMem(100 bytes @ 0x20000B9C)
T3E30 000:680.268 - 0.898ms returns 0x64
T3E30 000:680.284 JLINK_WriteMem(0x20000C00, 0x009C Bytes, ...)
T3E30 000:680.295   Data:  00 00 00 00 00 00 00 00 00 00 00 00 00 00 00 00 ...
T3E30 000:680.316   CPU_WriteMem(156 bytes @ 0x20000C00)
T3E30 000:681.364 - 1.087ms returns 0x9C
T3E30 000:681.383 JLINK_WriteReg(R0, 0x70000400)
T3E30 000:681.399 - 0.021ms returns 0x00
T3E30 000:681.410 JLINK_WriteReg(R1, 0x00000100)
T3E30 000:681.427 - 0.021ms returns 0x00
T3E30 000:681.438 JLINK_WriteReg(R2, 0x20000B9C)
T3E30 000:681.541 - 0.108ms returns 0x00
T3E30 000:681.552 JLINK_WriteReg(R3, 0x00000000)
T3E30 000:681.566 - 0.018ms returns 0x00
T3E30 000:681.576 JLINK_WriteReg(R4, 0x00000000)
T3E30 000:681.590 - 0.018ms returns 0x00
T3E30 000:681.600 JLINK_WriteReg(R5, 0x00000000)
T3E30 000:681.614 - 0.018ms returns 0x00
T3E30 000:681.624 JLINK_WriteReg(R6, 0x00000000)
T3E30 000:681.638 - 0.018ms returns 0x00
T3E30 000:681.648 JLINK_WriteReg(R7, 0x00000000)
T3E30 000:681.662 - 0.018ms returns 0x00
T3E30 000:681.672 JLINK_WriteReg(R8, 0x00000000)
T3E30 000:681.686 - 0.018ms returns 0x00
T3E30 000:681.696 JLINK_WriteReg(R9, 0x20000990)
T3E30 000:681.710 - 0.018ms returns 0x00
T3E30 000:681.720 JLINK_WriteReg(R10, 0x00000000)
T3E30 000:681.734 - 0.018ms returns 0x00
T3E30 000:681.745 JLINK_WriteReg(R11, 0x00000000)
T3E30 000:681.789 - 0.049ms returns 0x00
T3E30 000:681.813 JLINK_WriteReg(R12, 0x00000000)
T3E30 000:681.827 - 0.037ms returns 0x00
T3E30 000:681.857 JLINK_WriteReg(R13 (SP), 0x20008000)
T3E30 000:681.871 - 0.032ms returns 0x00
T3E30 000:681.895 JLINK_WriteReg(R14, 0x20000001)
T3E30 000:681.910 - 0.019ms returns 0x00
T3E30 000:681.920 JLINK_WriteReg(R15 (PC), 0x20000146)
T3E30 000:681.934 - 0.018ms returns 0x00
T3E30 000:681.944 JLINK_WriteReg(XPSR, 0x01000000)
T3E30 000:681.958 - 0.018ms returns 0x00
T3E30 000:681.971 JLINK_WriteReg(MSP, 0x20008000)
T3E30 000:681.987 - 0.019ms returns 0x00
T3E30 000:681.997 JLINK_WriteReg(PSP, 0x20008000)
T3E30 000:682.011 - 0.018ms returns 0x00
T3E30 000:682.021 JLINK_WriteReg(CFBP, 0x00000000)
T3E30 000:682.120 - 0.102ms returns 0x00
T3E30 000:682.131   JLINK_SetBPEx(Addr = 0x20000000, Type = 0xFFFFFFF2)
T3E30 000:682.151 - 0.025ms returns 0x0000000A
T3E30 000:682.162 JLINK_Go()
T3E30 000:682.178   CPU_WriteMem(4 bytes @ 0xE0002000)
T3E30 000:682.766   CPU_ReadMem(4 bytes @ 0xE0001000)
T3E30 000:685.354 - 3.199ms
T3E30 000:685.369 JLINK_IsHalted()
T3E30 000:686.982 - 1.623ms returns TRUE
T3E30 000:687.018 JLINK_ReadReg(R15 (PC))
T3E30 000:687.046 - 0.033ms returns 0x20000000
T3E30 000:687.058 JLINK_ClrBPEx(BPHandle = 0x0000000A)
T3E30 000:687.072 - 0.019ms returns 0x00
T3E30 000:687.083 JLINK_ReadReg(R0)
T3E30 000:687.187 - 0.109ms returns 0x00000000
T3E30 000:687.682 JLINK_WriteMem(0x20000B9C, 0x0064 Bytes, ...)
T3E30 000:687.695   Data:  00 00 00 00 00 00 00 00 00 00 00 00 00 00 00 00 ...
T3E30 000:687.720   CPU_WriteMem(100 bytes @ 0x20000B9C)
T3E30 000:688.706 - 1.033ms returns 0x64
T3E30 000:688.725 JLINK_WriteMem(0x20000C00, 0x009C Bytes, ...)
T3E30 000:688.735   Data:  00 00 00 00 00 00 00 00 00 00 00 00 00 00 00 00 ...
T3E30 000:688.758   CPU_WriteMem(156 bytes @ 0x20000C00)
T3E30 000:689.828 - 1.111ms returns 0x9C
T3E30 000:689.848 JLINK_WriteReg(R0, 0x70000500)
T3E30 000:689.865 - 0.021ms returns 0x00
T3E30 000:689.876 JLINK_WriteReg(R1, 0x00000100)
T3E30 000:689.890 - 0.019ms returns 0x00
T3E30 000:689.901 JLINK_WriteReg(R2, 0x20000B9C)
T3E30 000:689.915 - 0.018ms returns 0x00
T3E30 000:689.926 JLINK_WriteReg(R3, 0x00000000)
T3E30 000:689.940 - 0.019ms returns 0x00
T3E30 000:689.951 JLINK_WriteReg(R4, 0x00000000)
T3E30 000:689.965 - 0.018ms returns 0x00
T3E30 000:689.976 JLINK_WriteReg(R5, 0x00000000)
T3E30 000:689.990 - 0.018ms returns 0x00
T3E30 000:690.000 JLINK_WriteReg(R6, 0x00000000)
T3E30 000:690.014 - 0.018ms returns 0x00
T3E30 000:690.025 JLINK_WriteReg(R7, 0x00000000)
T3E30 000:690.039 - 0.018ms returns 0x00
T3E30 000:690.049 JLINK_WriteReg(R8, 0x00000000)
T3E30 000:690.178 - 0.133ms returns 0x00
T3E30 000:690.189 JLINK_WriteReg(R9, 0x20000990)
T3E30 000:690.203 - 0.018ms returns 0x00
T3E30 000:690.214 JLINK_WriteReg(R10, 0x00000000)
T3E30 000:690.228 - 0.018ms returns 0x00
T3E30 000:690.238 JLINK_WriteReg(R11, 0x00000000)
T3E30 000:690.252 - 0.018ms returns 0x00
T3E30 000:690.263 JLINK_WriteReg(R12, 0x00000000)
T3E30 000:690.277 - 0.018ms returns 0x00
T3E30 000:690.287 JLINK_WriteReg(R13 (SP), 0x20008000)
T3E30 000:690.304 - 0.021ms returns 0x00
T3E30 000:690.315 JLINK_WriteReg(R14, 0x20000001)
T3E30 000:690.329 - 0.018ms returns 0x00
T3E30 000:690.340 JLINK_WriteReg(R15 (PC), 0x20000146)
T3E30 000:690.353 - 0.018ms returns 0x00
T3E30 000:690.364 JLINK_WriteReg(XPSR, 0x01000000)
T3E30 000:690.378 - 0.018ms returns 0x00
T3E30 000:690.388 JLINK_WriteReg(MSP, 0x20008000)
T3E30 000:690.402 - 0.018ms returns 0x00
T3E30 000:690.412 JLINK_WriteReg(PSP, 0x20008000)
T3E30 000:690.427 - 0.018ms returns 0x00
T3E30 000:690.437 JLINK_WriteReg(CFBP, 0x00000000)
T3E30 000:690.451 - 0.018ms returns 0x00
T3E30 000:690.462   JLINK_SetBPEx(Addr = 0x20000000, Type = 0xFFFFFFF2)
T3E30 000:690.480 - 0.023ms returns 0x0000000B
T3E30 000:690.491 JLINK_Go()
T3E30 000:690.507   CPU_WriteMem(4 bytes @ 0xE0002000)
T3E30 000:690.964   CPU_ReadMem(4 bytes @ 0xE0001000)
T3E30 000:693.298 - 2.815ms
T3E30 000:693.315 JLINK_IsHalted()
T3E30 000:694.989 - 1.684ms returns TRUE
T3E30 000:695.008 JLINK_ReadReg(R15 (PC))
T3E30 000:695.045 - 0.055ms returns 0x20000000
T3E30 000:695.070 JLINK_ClrBPEx(BPHandle = 0x0000000B)
T3E30 000:695.114 - 0.061ms returns 0x00
T3E30 000:695.138 JLINK_ReadReg(R0)
T3E30 000:695.334 - 0.201ms returns 0x00000000
T3E30 000:695.847 JLINK_WriteMem(0x20000B9C, 0x0064 Bytes, ...)
T3E30 000:695.861   Data:  00 00 00 00 00 00 00 00 00 00 00 00 00 00 00 00 ...
T3E30 000:695.885   CPU_WriteMem(100 bytes @ 0x20000B9C)
T3E30 000:696.622 - 0.783ms returns 0x64
T3E30 000:696.640 JLINK_WriteMem(0x20000C00, 0x009C Bytes, ...)
T3E30 000:696.650   Data:  00 00 00 00 00 00 00 00 00 00 00 00 00 00 00 00 ...
T3E30 000:696.673   CPU_WriteMem(156 bytes @ 0x20000C00)
T3E30 000:697.594 - 0.976ms returns 0x9C
T3E30 000:697.629 JLINK_WriteReg(R0, 0x70000600)
T3E30 000:697.658 - 0.034ms returns 0x00
T3E30 000:697.669 JLINK_WriteReg(R1, 0x00000100)
T3E30 000:697.684 - 0.019ms returns 0x00
T3E30 000:697.695 JLINK_WriteReg(R2, 0x20000B9C)
T3E30 000:697.708 - 0.018ms returns 0x00
T3E30 000:697.719 JLINK_WriteReg(R3, 0x00000000)
T3E30 000:697.732 - 0.018ms returns 0x00
T3E30 000:697.743 JLINK_WriteReg(R4, 0x00000000)
T3E30 000:697.757 - 0.018ms returns 0x00
T3E30 000:697.767 JLINK_WriteReg(R5, 0x00000000)
T3E30 000:697.781 - 0.018ms returns 0x00
T3E30 000:697.791 JLINK_WriteReg(R6, 0x00000000)
T3E30 000:697.805 - 0.018ms returns 0x00
T3E30 000:697.815 JLINK_WriteReg(R7, 0x00000000)
T3E30 000:697.829 - 0.018ms returns 0x00
T3E30 000:697.839 JLINK_WriteReg(R8, 0x00000000)
T3E30 000:697.853 - 0.018ms returns 0x00
T3E30 000:697.863 JLINK_WriteReg(R9, 0x20000990)
T3E30 000:697.877 - 0.018ms returns 0x00
T3E30 000:697.888 JLINK_WriteReg(R10, 0x00000000)
T3E30 000:697.902 - 0.018ms returns 0x00
T3E30 000:697.926 JLINK_WriteReg(R11, 0x00000000)
T3E30 000:697.940 - 0.018ms returns 0x00
T3E30 000:697.951 JLINK_WriteReg(R12, 0x00000000)
T3E30 000:697.978 - 0.031ms returns 0x00
T3E30 000:697.988 JLINK_WriteReg(R13 (SP), 0x20008000)
T3E30 000:698.003 - 0.019ms returns 0x00
T3E30 000:698.013 JLINK_WriteReg(R14, 0x20000001)
T3E30 000:698.128 - 0.120ms returns 0x00
T3E30 000:698.139 JLINK_WriteReg(R15 (PC), 0x20000146)
T3E30 000:698.153 - 0.018ms returns 0x00
T3E30 000:698.164 JLINK_WriteReg(XPSR, 0x01000000)
T3E30 000:698.180 - 0.021ms returns 0x00
